T5F3C 000:006.882   SEGGER J-Link V7.92 Log File
T5F3C 000:007.014   DLL Compiled: Aug 11 2023 08:33:59
T5F3C 000:007.024   Logging started @ 2025-07-15 14:26
T5F3C 000:007.035 - 7.033ms
T5F3C 000:007.049 JLINK_SetWarnOutHandler(...)
T5F3C 000:007.058 - 0.010ms
T5F3C 000:007.069 JLINK_OpenEx(...)
T5F3C 000:043.515   Firmware: J-Link V9 compiled May  7 2021 16:26:12
T5F3C 000:044.181   Firmware: J-Link V9 compiled May  7 2021 16:26:12
T5F3C 000:044.343   Decompressing FW timestamp took 131 us
T5F3C 000:051.631   Hardware: V9.70
T5F3C 000:051.652   S/N: 602712662
T5F3C 000:051.666   OEM: SEGGER
T5F3C 000:051.680   Feature(s): JFlash, FlashDL, FlashBP, GDB, RDI
T5F3C 000:052.277   Bootloader: (Could not read)
T5F3C 000:058.013   TELNET listener socket opened on port 19021
T5F3C 000:058.137   WEBSRV WEBSRV_Init(): Starting webserver thread(s)
T5F3C 000:058.215   WEBSRV Failed to put socket into listener state (port 19080)
T5F3C 000:058.280   WEBSRV Webserver running on local port 19081
T5F3C 000:058.439   Looking for J-Link GUI Server exe at: M:\KEIL5\ARM\Segger\JLinkGUIServer.exe
T5F3C 000:058.610   Looking for J-Link GUI Server exe at: M:\Tools\JLINK\JLink\JLinkGUIServer.exe
T5F3C 000:058.631   Forking J-Link GUI Server: M:\Tools\JLINK\JLink\JLinkGUIServer.exe
T5F3C 000:076.561   J-Link GUI Server info: "J-Link GUI server V7.92 "
T5F3C 000:077.257 - 70.181ms returns "O.K."
T5F3C 000:077.333 JLINK_GetEmuCaps()
T5F3C 000:077.356 - 0.019ms returns 0xB9FF7BBF
T5F3C 000:077.391 JLINK_TIF_GetAvailable(...)
T5F3C 000:077.678 - 0.286ms
T5F3C 000:077.766 JLINK_SetErrorOutHandler(...)
T5F3C 000:077.782 - 0.016ms
T5F3C 000:077.808 JLINK_ExecCommand("ProjectFile = "C:\Users\Administrator\Desktop\充电桩代码\FreeRtos 0715\13.FreeRTOS实验\JLinkSettings.ini"", ...). 
T5F3C 000:088.837   Ref file found at: M:\KEIL5\ARM\Segger\JLinkDevices.ref
T5F3C 000:088.940   REF file references invalid XML file: M:\Tools\JLINK\JLink\JLinkDevices.xml
T5F3C 000:089.092 - 11.285ms returns 0x00
T5F3C 000:096.937 JLINK_ExecCommand("Device = GD32F303RE", ...). 
T5F3C 000:101.238   Device "GD32F303RE" selected.
T5F3C 000:101.741 - 4.774ms returns 0x00
T5F3C 000:101.759 JLINK_ExecCommand("DisableConnectionTimeout", ...). 
T5F3C 000:101.772 - 0.001ms returns 0x01
T5F3C 000:101.783 JLINK_GetHardwareVersion()
T5F3C 000:101.793 - 0.009ms returns 97000
T5F3C 000:101.804 JLINK_GetDLLVersion()
T5F3C 000:101.815 - 0.010ms returns 79200
T5F3C 000:101.827 JLINK_GetOEMString(...)
T5F3C 000:101.840 JLINK_GetFirmwareString(...)
T5F3C 000:101.850 - 0.011ms
T5F3C 000:123.576 JLINK_GetDLLVersion()
T5F3C 000:123.612 - 0.035ms returns 79200
T5F3C 000:123.622 JLINK_GetCompileDateTime()
T5F3C 000:123.632 - 0.009ms
T5F3C 000:128.428 JLINK_GetFirmwareString(...)
T5F3C 000:128.451 - 0.022ms
T5F3C 000:136.968 JLINK_GetHardwareVersion()
T5F3C 000:136.989 - 0.021ms returns 97000
T5F3C 000:142.068 JLINK_GetSN()
T5F3C 000:142.092 - 0.023ms returns 602712662
T5F3C 000:150.180 JLINK_GetOEMString(...)
T5F3C 000:163.184 JLINK_TIF_Select(JLINKARM_TIF_SWD)
T5F3C 000:164.313 - 1.127ms returns 0x00
T5F3C 000:164.353 JLINK_HasError()
T5F3C 000:164.369 JLINK_SetSpeed(5000)
T5F3C 000:164.610 - 0.240ms
T5F3C 000:164.647 JLINK_GetId()
T5F3C 000:169.454   Found SW-DP with ID 0x2BA01477
T5F3C 000:175.913   DPIDR: 0x2BA01477
T5F3C 000:179.801   CoreSight SoC-400 or earlier
T5F3C 000:183.766   Scanning AP map to find all available APs
T5F3C 000:188.874   AP[1]: Stopped AP scan as end of AP map has been reached
T5F3C 000:192.731   AP[0]: AHB-AP (IDR: 0x24770011)
T5F3C 000:196.565   Iterating through AP map to find AHB-AP to use
T5F3C 000:202.844   AP[0]: Core found
T5F3C 000:207.051   AP[0]: AHB-AP ROM base: 0xE00FF000
T5F3C 000:211.589   CPUID register: 0x410FC241. Implementer code: 0x41 (ARM)
T5F3C 000:218.832   Found Cortex-M4 r0p1, Little endian.
T5F3C 000:219.429   -- Max. mem block: 0x00010928
T5F3C 000:220.033   CPU_ReadMem(4 bytes @ 0xE000EDF0)
T5F3C 000:220.311   CPU_ReadMem(4 bytes @ 0xE0002000)
T5F3C 000:224.608   FPUnit: 6 code (BP) slots and 2 literal slots
T5F3C 000:224.678   CPU_ReadMem(4 bytes @ 0xE000EDFC)
T5F3C 000:225.007   CPU_ReadMem(4 bytes @ 0xE0001000)
T5F3C 000:225.340   CPU_WriteMem(4 bytes @ 0xE0001000)
T5F3C 000:225.680   CPU_ReadMem(4 bytes @ 0xE000ED88)
T5F3C 000:226.008   CPU_WriteMem(4 bytes @ 0xE000ED88)
T5F3C 000:226.338   CPU_ReadMem(4 bytes @ 0xE000ED88)
T5F3C 000:226.656   CPU_WriteMem(4 bytes @ 0xE000ED88)
T5F3C 000:230.836   CoreSight components:
T5F3C 000:235.293   ROMTbl[0] @ E00FF000
T5F3C 000:235.321   CPU_ReadMem(64 bytes @ 0xE00FF000)
T5F3C 000:235.915   CPU_ReadMem(32 bytes @ 0xE000EFE0)
T5F3C 000:241.866   [0][0]: E000E000 CID B105E00D PID 000BB00C SCS-M7
T5F3C 000:241.900   CPU_ReadMem(32 bytes @ 0xE0001FE0)
T5F3C 000:245.791   [0][1]: E0001000 CID B105E00D PID 003BB002 DWT
T5F3C 000:245.818   CPU_ReadMem(32 bytes @ 0xE0002FE0)
T5F3C 000:249.764   [0][2]: E0002000 CID B105E00D PID 002BB003 FPB
T5F3C 000:249.800   CPU_ReadMem(32 bytes @ 0xE0000FE0)
T5F3C 000:253.875   [0][3]: E0000000 CID B105E00D PID 003BB001 ITM
T5F3C 000:253.903   CPU_ReadMem(32 bytes @ 0xE0040FE0)
T5F3C 000:257.919   [0][4]: E0040000 CID B105900D PID 000BB9A1 TPIU
T5F3C 000:257.945   CPU_ReadMem(32 bytes @ 0xE0041FE0)
T5F3C 000:261.814   [0][5]: E0041000 CID 00000000 PID 00000000 ???
T5F3C 000:262.141 - 97.493ms returns 0x2BA01477
T5F3C 000:262.193 JLINK_GetDLLVersion()
T5F3C 000:262.206 - 0.012ms returns 79200
T5F3C 000:262.218 JLINK_CORE_GetFound()
T5F3C 000:262.228 - 0.009ms returns 0xE0000FF
T5F3C 000:262.239 JLINK_GetDebugInfo(0x100 = JLINKARM_ROM_TABLE_ADDR_INDEX)
T5F3C 000:262.249   Value=0xE00FF000
T5F3C 000:262.263 - 0.024ms returns 0
T5F3C 000:268.799 JLINK_GetDebugInfo(0x100 = JLINKARM_ROM_TABLE_ADDR_INDEX)
T5F3C 000:268.823   Value=0xE00FF000
T5F3C 000:268.837 - 0.038ms returns 0
T5F3C 000:268.848 JLINK_GetDebugInfo(0x101 = JLINKARM_DEBUG_INFO_ETM_ADDR_INDEX)
T5F3C 000:268.858   Value=0x00000000
T5F3C 000:268.872 - 0.023ms returns 0
T5F3C 000:268.886 JLINK_ReadMemEx(0xE0041FF0, 0x10 Bytes, Flags = 0x02000004)
T5F3C 000:268.910   CPU_ReadMem(16 bytes @ 0xE0041FF0)
T5F3C 000:269.409   Data:  00 00 00 00 00 00 00 00 00 00 00 00 00 00 00 00
T5F3C 000:269.428 - 0.542ms returns 16 (0x10)
T5F3C 000:269.463 JLINK_GetDebugInfo(0x102 = JLINKARM_DEBUG_INFO_MTB_ADDR_INDEX)
T5F3C 000:269.474   Value=0x00000000
T5F3C 000:269.489 - 0.026ms returns 0
T5F3C 000:269.499 JLINK_GetDebugInfo(0x103 = JLINKARM_DEBUG_INFO_TPIU_ADDR_INDEX)
T5F3C 000:269.509   Value=0xE0040000
T5F3C 000:269.523 - 0.024ms returns 0
T5F3C 000:269.532 JLINK_GetDebugInfo(0x104 = JLINKARM_DEBUG_INFO_ITM_ADDR_INDEX)
T5F3C 000:269.542   Value=0xE0000000
T5F3C 000:269.556 - 0.023ms returns 0
T5F3C 000:269.566 JLINK_GetDebugInfo(0x105 = JLINKARM_DEBUG_INFO_DWT_ADDR_INDEX)
T5F3C 000:269.576   Value=0xE0001000
T5F3C 000:269.590 - 0.024ms returns 0
T5F3C 000:269.600 JLINK_GetDebugInfo(0x106 = JLINKARM_DEBUG_INFO_FPB_ADDR_INDEX)
T5F3C 000:269.610   Value=0xE0002000
T5F3C 000:269.623 - 0.022ms returns 0
T5F3C 000:269.633 JLINK_GetDebugInfo(0x107 = JLINKARM_DEBUG_INFO_NVIC_ADDR_INDEX)
T5F3C 000:269.643   Value=0xE000E000
T5F3C 000:269.657 - 0.023ms returns 0
T5F3C 000:269.667 JLINK_GetDebugInfo(0x10C = JLINKARM_DEBUG_INFO_DBG_ADDR_INDEX)
T5F3C 000:269.676   Value=0xE000EDF0
T5F3C 000:269.690 - 0.023ms returns 0
T5F3C 000:269.701 JLINK_ReadMemU32(0xE000EF40, 0x1 Items)
T5F3C 000:269.714   CPU_ReadMem(4 bytes @ 0xE000EF40)
T5F3C 000:270.159   Data:  21 00 11 10
T5F3C 000:270.182 - 0.481ms returns 1 (0x1)
T5F3C 000:270.221 JLINK_ReadMemU32(0xE000EF44, 0x1 Items)
T5F3C 000:270.237   CPU_ReadMem(4 bytes @ 0xE000EF44)
T5F3C 000:270.685   Data:  11 00 00 11
T5F3C 000:270.708 - 0.486ms returns 1 (0x1)
T5F3C 000:270.747 JLINK_ReadMemU32(0xE000ED00, 0x1 Items)
T5F3C 000:270.762   CPU_ReadMem(4 bytes @ 0xE000ED00)
T5F3C 000:271.136   Data:  41 C2 0F 41
T5F3C 000:271.158   Debug reg: CPUID
T5F3C 000:271.172 - 0.425ms returns 1 (0x1)
T5F3C 000:271.211 JLINK_GetDebugInfo(0x10F = JLINKARM_DEBUG_INFO_HAS_CORTEX_M_SECURITY_EXT_INDEX)
T5F3C 000:271.264   Value=0x00000000
T5F3C 000:271.280 - 0.069ms returns 0
T5F3C 000:271.292 JLINK_HasError()
T5F3C 000:271.303 JLINK_SetResetType(JLINKARM_CM3_RESET_TYPE_NORMAL)
T5F3C 000:271.313 - 0.010ms returns JLINKARM_CM3_RESET_TYPE_NORMAL
T5F3C 000:271.323 JLINK_Reset()
T5F3C 000:271.411   CPU is running
T5F3C 000:271.434   CPU_WriteMem(4 bytes @ 0xE000EDF0)
T5F3C 000:271.798   CPU is running
T5F3C 000:271.822   CPU_WriteMem(4 bytes @ 0xE000EDFC)
T5F3C 000:275.651   Reset: Halt core after reset via DEMCR.VC_CORERESET.
T5F3C 000:281.908   Reset: Reset device via AIRCR.SYSRESETREQ.
T5F3C 000:281.937   CPU is running
T5F3C 000:281.953   CPU_WriteMem(4 bytes @ 0xE000ED0C)
T5F3C 000:335.962   CPU_ReadMem(4 bytes @ 0xE000EDF0)
T5F3C 000:336.299   CPU_ReadMem(4 bytes @ 0xE000EDF0)
T5F3C 000:338.766   CPU_WriteMem(4 bytes @ 0xE000EDFC)
T5F3C 000:344.170   CPU_ReadMem(4 bytes @ 0xE000EDF0)
T5F3C 000:346.501   CPU_WriteMem(4 bytes @ 0xE0002000)
T5F3C 000:346.791   CPU_ReadMem(4 bytes @ 0xE000EDFC)
T5F3C 000:347.147   CPU_ReadMem(4 bytes @ 0xE0001000)
T5F3C 000:347.459 - 76.135ms
T5F3C 000:347.504 JLINK_Halt()
T5F3C 000:347.517 - 0.012ms returns 0x00
T5F3C 000:347.528 JLINK_ReadMemU32(0xE000EDF0, 0x1 Items)
T5F3C 000:347.543   CPU_ReadMem(4 bytes @ 0xE000EDF0)
T5F3C 000:347.836   Data:  03 00 03 00
T5F3C 000:347.855   Debug reg: DHCSR
T5F3C 000:347.868 - 0.340ms returns 1 (0x1)
T5F3C 000:347.904 JLINK_WriteU32_64(0xE000EDF0, 0xA05F0003)
T5F3C 000:347.916   Debug reg: DHCSR
T5F3C 000:348.135   CPU_WriteMem(4 bytes @ 0xE000EDF0)
T5F3C 000:348.437 - 0.534ms returns 0 (0x00000000)
T5F3C 000:348.473 JLINK_WriteU32_64(0xE000EDFC, 0x01000000)
T5F3C 000:348.485   Debug reg: DEMCR
T5F3C 000:348.501   CPU_WriteMem(4 bytes @ 0xE000EDFC)
T5F3C 000:348.792 - 0.318ms returns 0 (0x00000000)
T5F3C 000:364.295 JLINK_GetHWStatus(...)
T5F3C 000:364.663 - 0.368ms returns 0
T5F3C 000:380.215 JLINK_GetNumBPUnits(Type = 0xFFFFFF00)
T5F3C 000:380.245 - 0.029ms returns 0x06
T5F3C 000:380.256 JLINK_GetNumBPUnits(Type = 0xF0)
T5F3C 000:380.266 - 0.009ms returns 0x2000
T5F3C 000:380.276 JLINK_GetNumWPUnits()
T5F3C 000:380.286 - 0.009ms returns 4
T5F3C 000:392.827 JLINK_GetSpeed()
T5F3C 000:392.853 - 0.025ms returns 4000
T5F3C 000:399.691 JLINK_ReadMemU32(0xE000E004, 0x1 Items)
T5F3C 000:399.724   CPU_ReadMem(4 bytes @ 0xE000E004)
T5F3C 000:400.224   Data:  02 00 00 00
T5F3C 000:400.247 - 0.556ms returns 1 (0x1)
T5F3C 000:400.288 JLINK_ReadMemU32(0xE000E004, 0x1 Items)
T5F3C 000:400.304   CPU_ReadMem(4 bytes @ 0xE000E004)
T5F3C 000:400.742   Data:  02 00 00 00
T5F3C 000:400.765 - 0.476ms returns 1 (0x1)
T5F3C 000:400.804 JLINK_WriteMemEx(0xE0001000, 0x0000001C Bytes, Flags = 0x02000004)
T5F3C 000:400.816   Data:  01 00 00 00 00 00 00 00 00 00 00 00 00 00 00 00 ...
T5F3C 000:400.836   CPU_WriteMem(28 bytes @ 0xE0001000)
T5F3C 000:401.362 - 0.557ms returns 0x1C
T5F3C 000:401.411 JLINK_Halt()
T5F3C 000:401.423 - 0.012ms returns 0x00
T5F3C 000:401.434 JLINK_IsHalted()
T5F3C 000:401.445 - 0.010ms returns TRUE
T5F3C 000:404.739 JLINK_WriteMem(0x20000000, 0x13C Bytes, ...)
T5F3C 000:404.756   Data:  00 BE 0A E0 0D 78 2D 06 68 40 08 24 40 00 00 D3 ...
T5F3C 000:404.977   CPU_WriteMem(316 bytes @ 0x20000000)
T5F3C 000:406.473 - 1.734ms returns 0x13C
T5F3C 000:406.539 JLINK_HasError()
T5F3C 000:406.554 JLINK_WriteReg(R0, 0x08000000)
T5F3C 000:406.566 - 0.012ms returns 0
T5F3C 000:406.576 JLINK_WriteReg(R1, 0x00B71B00)
T5F3C 000:406.586 - 0.010ms returns 0
T5F3C 000:406.597 JLINK_WriteReg(R2, 0x00000001)
T5F3C 000:406.607 - 0.010ms returns 0
T5F3C 000:406.617 JLINK_WriteReg(R3, 0x00000000)
T5F3C 000:406.627 - 0.009ms returns 0
T5F3C 000:406.638 JLINK_WriteReg(R4, 0x00000000)
T5F3C 000:406.648 - 0.010ms returns 0
T5F3C 000:406.658 JLINK_WriteReg(R5, 0x00000000)
T5F3C 000:406.668 - 0.010ms returns 0
T5F3C 000:406.679 JLINK_WriteReg(R6, 0x00000000)
T5F3C 000:406.689 - 0.010ms returns 0
T5F3C 000:406.699 JLINK_WriteReg(R7, 0x00000000)
T5F3C 000:406.709 - 0.009ms returns 0
T5F3C 000:406.722 JLINK_WriteReg(R8, 0x00000000)
T5F3C 000:406.777 - 0.057ms returns 0
T5F3C 000:406.787 JLINK_WriteReg(R9, 0x20000134)
T5F3C 000:406.798 - 0.010ms returns 0
T5F3C 000:406.808 JLINK_WriteReg(R10, 0x00000000)
T5F3C 000:406.819 - 0.010ms returns 0
T5F3C 000:406.829 JLINK_WriteReg(R11, 0x00000000)
T5F3C 000:406.838 - 0.009ms returns 0
T5F3C 000:406.849 JLINK_WriteReg(R12, 0x00000000)
T5F3C 000:406.859 - 0.010ms returns 0
T5F3C 000:406.870 JLINK_WriteReg(R13 (SP), 0x20001000)
T5F3C 000:406.881 - 0.011ms returns 0
T5F3C 000:406.891 JLINK_WriteReg(R14, 0x20000001)
T5F3C 000:406.901 - 0.010ms returns 0
T5F3C 000:406.914 JLINK_WriteReg(R15 (PC), 0x20000038)
T5F3C 000:406.924 - 0.012ms returns 0
T5F3C 000:406.935 JLINK_WriteReg(XPSR, 0x01000000)
T5F3C 000:406.944 - 0.009ms returns 0
T5F3C 000:406.955 JLINK_WriteReg(MSP, 0x20001000)
T5F3C 000:406.965 - 0.010ms returns 0
T5F3C 000:406.975 JLINK_WriteReg(PSP, 0x20001000)
T5F3C 000:406.985 - 0.010ms returns 0
T5F3C 000:406.996 JLINK_WriteReg(CFBP, 0x00000000)
T5F3C 000:407.006 - 0.010ms returns 0
T5F3C 000:407.017 JLINK_SetBPEx(Addr = 0x20000000, Type = 0xFFFFFFF2)
T5F3C 000:407.030   CPU_ReadMem(2 bytes @ 0x20000000)
T5F3C 000:407.336 - 0.319ms returns 0x00000001
T5F3C 000:407.373 JLINK_Go()
T5F3C 000:407.386   CPU_WriteMem(2 bytes @ 0x20000000)
T5F3C 000:407.712   CPU_ReadMem(4 bytes @ 0xE0001000)
T5F3C 000:408.000   CPU_WriteMem(4 bytes @ 0xE0002008)
T5F3C 000:408.019   CPU_WriteMem(4 bytes @ 0xE000200C)
T5F3C 000:408.033   CPU_WriteMem(4 bytes @ 0xE0002010)
T5F3C 000:408.047   CPU_WriteMem(4 bytes @ 0xE0002014)
T5F3C 000:408.061   CPU_WriteMem(4 bytes @ 0xE0002018)
T5F3C 000:408.075   CPU_WriteMem(4 bytes @ 0xE000201C)
T5F3C 000:409.089   CPU_WriteMem(4 bytes @ 0xE0001004)
T5F3C 000:411.441 - 4.068ms
T5F3C 000:411.483 JLINK_IsHalted()
T5F3C 000:413.562   CPU_ReadMem(2 bytes @ 0x20000000)
T5F3C 000:413.857 - 2.374ms returns TRUE
T5F3C 000:413.893 JLINK_ReadReg(R15 (PC))
T5F3C 000:413.909 - 0.015ms returns 0x20000000
T5F3C 000:413.920 JLINK_ClrBPEx(BPHandle = 0x00000001)
T5F3C 000:413.930 - 0.010ms returns 0x00
T5F3C 000:413.941 JLINK_ReadReg(R0)
T5F3C 000:413.951 - 0.010ms returns 0x00000000
T5F3C 000:414.211 JLINK_HasError()
T5F3C 000:414.228 JLINK_WriteReg(R0, 0x08003000)
T5F3C 000:414.240 - 0.011ms returns 0
T5F3C 000:414.250 JLINK_WriteReg(R1, 0x00000800)
T5F3C 000:414.259 - 0.009ms returns 0
T5F3C 000:414.270 JLINK_WriteReg(R2, 0x000000FF)
T5F3C 000:414.280 - 0.010ms returns 0
T5F3C 000:414.290 JLINK_WriteReg(R3, 0x00000000)
T5F3C 000:414.300 - 0.010ms returns 0
T5F3C 000:414.311 JLINK_WriteReg(R4, 0x00000000)
T5F3C 000:414.321 - 0.010ms returns 0
T5F3C 000:414.331 JLINK_WriteReg(R5, 0x00000000)
T5F3C 000:414.341 - 0.009ms returns 0
T5F3C 000:414.351 JLINK_WriteReg(R6, 0x00000000)
T5F3C 000:414.362 - 0.010ms returns 0
T5F3C 000:414.372 JLINK_WriteReg(R7, 0x00000000)
T5F3C 000:414.382 - 0.010ms returns 0
T5F3C 000:414.392 JLINK_WriteReg(R8, 0x00000000)
T5F3C 000:414.403 - 0.010ms returns 0
T5F3C 000:414.413 JLINK_WriteReg(R9, 0x20000134)
T5F3C 000:414.422 - 0.009ms returns 0
T5F3C 000:414.433 JLINK_WriteReg(R10, 0x00000000)
T5F3C 000:414.443 - 0.010ms returns 0
T5F3C 000:414.453 JLINK_WriteReg(R11, 0x00000000)
T5F3C 000:414.463 - 0.010ms returns 0
T5F3C 000:414.474 JLINK_WriteReg(R12, 0x00000000)
T5F3C 000:414.484 - 0.010ms returns 0
T5F3C 000:414.494 JLINK_WriteReg(R13 (SP), 0x20001000)
T5F3C 000:414.504 - 0.010ms returns 0
T5F3C 000:414.515 JLINK_WriteReg(R14, 0x20000001)
T5F3C 000:414.525 - 0.010ms returns 0
T5F3C 000:414.535 JLINK_WriteReg(R15 (PC), 0x20000020)
T5F3C 000:414.545 - 0.010ms returns 0
T5F3C 000:414.556 JLINK_WriteReg(XPSR, 0x01000000)
T5F3C 000:414.566 - 0.010ms returns 0
T5F3C 000:414.576 JLINK_WriteReg(MSP, 0x20001000)
T5F3C 000:414.585 - 0.009ms returns 0
T5F3C 000:414.596 JLINK_WriteReg(PSP, 0x20001000)
T5F3C 000:414.606 - 0.010ms returns 0
T5F3C 000:414.616 JLINK_WriteReg(CFBP, 0x00000000)
T5F3C 000:414.627 - 0.010ms returns 0
T5F3C 000:414.637 JLINK_SetBPEx(Addr = 0x20000000, Type = 0xFFFFFFF2)
T5F3C 000:414.650 - 0.013ms returns 0x00000002
T5F3C 000:414.661 JLINK_Go()
T5F3C 000:414.675   CPU_ReadMem(4 bytes @ 0xE0001000)
T5F3C 000:416.857 - 2.195ms
T5F3C 000:416.892 JLINK_IsHalted()
T5F3C 000:418.811   CPU_ReadMem(2 bytes @ 0x20000000)
T5F3C 000:419.108 - 2.215ms returns TRUE
T5F3C 000:419.145 JLINK_ReadReg(R15 (PC))
T5F3C 000:419.159 - 0.014ms returns 0x20000000
T5F3C 000:419.170 JLINK_ClrBPEx(BPHandle = 0x00000002)
T5F3C 000:419.180 - 0.010ms returns 0x00
T5F3C 000:419.191 JLINK_ReadReg(R0)
T5F3C 000:419.201 - 0.009ms returns 0x00000001
T5F3C 000:419.212 JLINK_HasError()
T5F3C 000:419.223 JLINK_WriteReg(R0, 0x08003000)
T5F3C 000:419.234 - 0.010ms returns 0
T5F3C 000:419.244 JLINK_WriteReg(R1, 0x00000800)
T5F3C 000:419.253 - 0.009ms returns 0
T5F3C 000:419.264 JLINK_WriteReg(R2, 0x000000FF)
T5F3C 000:419.274 - 0.010ms returns 0
T5F3C 000:419.284 JLINK_WriteReg(R3, 0x00000000)
T5F3C 000:419.295 - 0.010ms returns 0
T5F3C 000:419.305 JLINK_WriteReg(R4, 0x00000000)
T5F3C 000:419.315 - 0.009ms returns 0
T5F3C 000:419.325 JLINK_WriteReg(R5, 0x00000000)
T5F3C 000:419.335 - 0.010ms returns 0
T5F3C 000:419.346 JLINK_WriteReg(R6, 0x00000000)
T5F3C 000:419.356 - 0.010ms returns 0
T5F3C 000:419.366 JLINK_WriteReg(R7, 0x00000000)
T5F3C 000:419.376 - 0.010ms returns 0
T5F3C 000:419.386 JLINK_WriteReg(R8, 0x00000000)
T5F3C 000:419.396 - 0.010ms returns 0
T5F3C 000:419.407 JLINK_WriteReg(R9, 0x20000134)
T5F3C 000:419.417 - 0.009ms returns 0
T5F3C 000:419.427 JLINK_WriteReg(R10, 0x00000000)
T5F3C 000:419.437 - 0.010ms returns 0
T5F3C 000:419.447 JLINK_WriteReg(R11, 0x00000000)
T5F3C 000:419.458 - 0.010ms returns 0
T5F3C 000:419.468 JLINK_WriteReg(R12, 0x00000000)
T5F3C 000:419.478 - 0.010ms returns 0
T5F3C 000:419.489 JLINK_WriteReg(R13 (SP), 0x20001000)
T5F3C 000:419.499 - 0.009ms returns 0
T5F3C 000:419.509 JLINK_WriteReg(R14, 0x20000001)
T5F3C 000:419.519 - 0.010ms returns 0
T5F3C 000:419.530 JLINK_WriteReg(R15 (PC), 0x200000A8)
T5F3C 000:419.540 - 0.010ms returns 0
T5F3C 000:419.550 JLINK_WriteReg(XPSR, 0x01000000)
T5F3C 000:419.560 - 0.010ms returns 0
T5F3C 000:419.571 JLINK_WriteReg(MSP, 0x20001000)
T5F3C 000:419.580 - 0.009ms returns 0
T5F3C 000:419.591 JLINK_WriteReg(PSP, 0x20001000)
T5F3C 000:419.601 - 0.010ms returns 0
T5F3C 000:419.612 JLINK_WriteReg(CFBP, 0x00000000)
T5F3C 000:419.622 - 0.010ms returns 0
T5F3C 000:419.632 JLINK_SetBPEx(Addr = 0x20000000, Type = 0xFFFFFFF2)
T5F3C 000:419.643 - 0.010ms returns 0x00000003
T5F3C 000:419.654 JLINK_Go()
T5F3C 000:419.668   CPU_ReadMem(4 bytes @ 0xE0001000)
T5F3C 000:421.841 - 2.186ms
T5F3C 000:421.886 JLINK_IsHalted()
T5F3C 000:422.232 - 0.346ms returns FALSE
T5F3C 000:422.268 JLINK_HasError()
T5F3C 000:438.413 JLINK_IsHalted()
T5F3C 000:438.877 - 0.464ms returns FALSE
T5F3C 000:438.917 JLINK_HasError()
T5F3C 000:440.353 JLINK_IsHalted()
T5F3C 000:440.691 - 0.339ms returns FALSE
T5F3C 000:440.727 JLINK_HasError()
T5F3C 000:442.307 JLINK_IsHalted()
T5F3C 000:442.646 - 0.339ms returns FALSE
T5F3C 000:442.681 JLINK_HasError()
T5F3C 000:444.260 JLINK_IsHalted()
T5F3C 000:444.625 - 0.366ms returns FALSE
T5F3C 000:444.661 JLINK_HasError()
T5F3C 000:446.208 JLINK_IsHalted()
T5F3C 000:446.647 - 0.439ms returns FALSE
T5F3C 000:446.681 JLINK_HasError()
T5F3C 000:448.177 JLINK_IsHalted()
T5F3C 000:448.479 - 0.301ms returns FALSE
T5F3C 000:448.516 JLINK_HasError()
T5F3C 000:450.133 JLINK_IsHalted()
T5F3C 000:450.438 - 0.305ms returns FALSE
T5F3C 000:450.474 JLINK_HasError()
T5F3C 000:452.044 JLINK_IsHalted()
T5F3C 000:454.055   CPU_ReadMem(2 bytes @ 0x20000000)
T5F3C 000:454.349 - 2.305ms returns TRUE
T5F3C 000:454.386 JLINK_ReadReg(R15 (PC))
T5F3C 000:454.400 - 0.013ms returns 0x20000000
T5F3C 000:454.411 JLINK_ClrBPEx(BPHandle = 0x00000003)
T5F3C 000:454.421 - 0.010ms returns 0x00
T5F3C 000:454.431 JLINK_ReadReg(R0)
T5F3C 000:454.442 - 0.010ms returns 0x00000000
T5F3C 000:454.921 JLINK_HasError()
T5F3C 000:454.939 JLINK_WriteReg(R0, 0x08003800)
T5F3C 000:454.951 - 0.012ms returns 0
T5F3C 000:454.965 JLINK_WriteReg(R1, 0x00000800)
T5F3C 000:454.977 - 0.011ms returns 0
T5F3C 000:454.987 JLINK_WriteReg(R2, 0x000000FF)
T5F3C 000:454.997 - 0.010ms returns 0
T5F3C 000:455.008 JLINK_WriteReg(R3, 0x00000000)
T5F3C 000:455.018 - 0.009ms returns 0
T5F3C 000:455.028 JLINK_WriteReg(R4, 0x00000000)
T5F3C 000:455.038 - 0.010ms returns 0
T5F3C 000:455.048 JLINK_WriteReg(R5, 0x00000000)
T5F3C 000:455.058 - 0.010ms returns 0
T5F3C 000:455.069 JLINK_WriteReg(R6, 0x00000000)
T5F3C 000:455.079 - 0.010ms returns 0
T5F3C 000:455.089 JLINK_WriteReg(R7, 0x00000000)
T5F3C 000:455.099 - 0.009ms returns 0
T5F3C 000:455.109 JLINK_WriteReg(R8, 0x00000000)
T5F3C 000:455.119 - 0.010ms returns 0
T5F3C 000:455.129 JLINK_WriteReg(R9, 0x20000134)
T5F3C 000:455.139 - 0.010ms returns 0
T5F3C 000:455.150 JLINK_WriteReg(R10, 0x00000000)
T5F3C 000:455.159 - 0.009ms returns 0
T5F3C 000:455.170 JLINK_WriteReg(R11, 0x00000000)
T5F3C 000:455.180 - 0.009ms returns 0
T5F3C 000:455.190 JLINK_WriteReg(R12, 0x00000000)
T5F3C 000:455.200 - 0.010ms returns 0
T5F3C 000:455.210 JLINK_WriteReg(R13 (SP), 0x20001000)
T5F3C 000:455.221 - 0.010ms returns 0
T5F3C 000:455.231 JLINK_WriteReg(R14, 0x20000001)
T5F3C 000:455.241 - 0.010ms returns 0
T5F3C 000:455.252 JLINK_WriteReg(R15 (PC), 0x20000020)
T5F3C 000:455.262 - 0.009ms returns 0
T5F3C 000:455.272 JLINK_WriteReg(XPSR, 0x01000000)
T5F3C 000:455.282 - 0.010ms returns 0
T5F3C 000:455.293 JLINK_WriteReg(MSP, 0x20001000)
T5F3C 000:455.303 - 0.010ms returns 0
T5F3C 000:455.313 JLINK_WriteReg(PSP, 0x20001000)
T5F3C 000:455.323 - 0.009ms returns 0
T5F3C 000:455.333 JLINK_WriteReg(CFBP, 0x00000000)
T5F3C 000:455.343 - 0.009ms returns 0
T5F3C 000:455.354 JLINK_SetBPEx(Addr = 0x20000000, Type = 0xFFFFFFF2)
T5F3C 000:455.365 - 0.011ms returns 0x00000004
T5F3C 000:455.375 JLINK_Go()
T5F3C 000:455.391   CPU_ReadMem(4 bytes @ 0xE0001000)
T5F3C 000:457.626 - 2.250ms
T5F3C 000:457.662 JLINK_IsHalted()
T5F3C 000:459.659   CPU_ReadMem(2 bytes @ 0x20000000)
T5F3C 000:459.944 - 2.281ms returns TRUE
T5F3C 000:459.995 JLINK_ReadReg(R15 (PC))
T5F3C 000:460.009 - 0.014ms returns 0x20000000
T5F3C 000:460.020 JLINK_ClrBPEx(BPHandle = 0x00000004)
T5F3C 000:460.032 - 0.011ms returns 0x00
T5F3C 000:460.042 JLINK_ReadReg(R0)
T5F3C 000:460.053 - 0.010ms returns 0x00000001
T5F3C 000:460.064 JLINK_HasError()
T5F3C 000:460.075 JLINK_WriteReg(R0, 0x08003800)
T5F3C 000:460.086 - 0.011ms returns 0
T5F3C 000:460.097 JLINK_WriteReg(R1, 0x00000800)
T5F3C 000:460.107 - 0.010ms returns 0
T5F3C 000:460.118 JLINK_WriteReg(R2, 0x000000FF)
T5F3C 000:460.128 - 0.009ms returns 0
T5F3C 000:460.138 JLINK_WriteReg(R3, 0x00000000)
T5F3C 000:460.149 - 0.010ms returns 0
T5F3C 000:460.159 JLINK_WriteReg(R4, 0x00000000)
T5F3C 000:460.169 - 0.010ms returns 0
T5F3C 000:460.180 JLINK_WriteReg(R5, 0x00000000)
T5F3C 000:460.190 - 0.010ms returns 0
T5F3C 000:460.200 JLINK_WriteReg(R6, 0x00000000)
T5F3C 000:460.210 - 0.009ms returns 0
T5F3C 000:460.220 JLINK_WriteReg(R7, 0x00000000)
T5F3C 000:460.231 - 0.010ms returns 0
T5F3C 000:460.241 JLINK_WriteReg(R8, 0x00000000)
T5F3C 000:460.251 - 0.010ms returns 0
T5F3C 000:460.261 JLINK_WriteReg(R9, 0x20000134)
T5F3C 000:460.272 - 0.010ms returns 0
T5F3C 000:460.282 JLINK_WriteReg(R10, 0x00000000)
T5F3C 000:460.292 - 0.009ms returns 0
T5F3C 000:460.302 JLINK_WriteReg(R11, 0x00000000)
T5F3C 000:460.313 - 0.010ms returns 0
T5F3C 000:460.323 JLINK_WriteReg(R12, 0x00000000)
T5F3C 000:460.333 - 0.010ms returns 0
T5F3C 000:460.344 JLINK_WriteReg(R13 (SP), 0x20001000)
T5F3C 000:460.354 - 0.010ms returns 0
T5F3C 000:460.365 JLINK_WriteReg(R14, 0x20000001)
T5F3C 000:460.375 - 0.009ms returns 0
T5F3C 000:460.385 JLINK_WriteReg(R15 (PC), 0x200000A8)
T5F3C 000:460.395 - 0.010ms returns 0
T5F3C 000:460.406 JLINK_WriteReg(XPSR, 0x01000000)
T5F3C 000:460.416 - 0.010ms returns 0
T5F3C 000:460.426 JLINK_WriteReg(MSP, 0x20001000)
T5F3C 000:460.436 - 0.010ms returns 0
T5F3C 000:460.447 JLINK_WriteReg(PSP, 0x20001000)
T5F3C 000:460.459 - 0.011ms returns 0
T5F3C 000:460.470 JLINK_WriteReg(CFBP, 0x00000000)
T5F3C 000:460.481 - 0.010ms returns 0
T5F3C 000:460.493 JLINK_SetBPEx(Addr = 0x20000000, Type = 0xFFFFFFF2)
T5F3C 000:460.504 - 0.011ms returns 0x00000005
T5F3C 000:460.514 JLINK_Go()
T5F3C 000:460.529   CPU_ReadMem(4 bytes @ 0xE0001000)
T5F3C 000:462.805 - 2.290ms
T5F3C 000:462.870 JLINK_IsHalted()
T5F3C 000:463.189 - 0.318ms returns FALSE
T5F3C 000:463.227 JLINK_HasError()
T5F3C 000:464.395 JLINK_IsHalted()
T5F3C 000:464.710 - 0.314ms returns FALSE
T5F3C 000:464.746 JLINK_HasError()
T5F3C 000:466.344 JLINK_IsHalted()
T5F3C 000:466.711 - 0.366ms returns FALSE
T5F3C 000:466.748 JLINK_HasError()
T5F3C 000:468.300 JLINK_IsHalted()
T5F3C 000:468.716 - 0.416ms returns FALSE
T5F3C 000:468.757 JLINK_HasError()
T5F3C 000:470.248 JLINK_IsHalted()
T5F3C 000:470.611 - 0.362ms returns FALSE
T5F3C 000:470.650 JLINK_HasError()
T5F3C 000:472.199 JLINK_IsHalted()
T5F3C 000:472.526 - 0.326ms returns FALSE
T5F3C 000:472.563 JLINK_HasError()
T5F3C 000:474.160 JLINK_IsHalted()
T5F3C 000:474.765 - 0.605ms returns FALSE
T5F3C 000:474.808 JLINK_HasError()
T5F3C 000:476.109 JLINK_IsHalted()
T5F3C 000:476.463 - 0.353ms returns FALSE
T5F3C 000:476.507 JLINK_HasError()
T5F3C 000:478.058 JLINK_IsHalted()
T5F3C 000:478.492 - 0.433ms returns FALSE
T5F3C 000:478.535 JLINK_HasError()
T5F3C 000:480.008 JLINK_IsHalted()
T5F3C 000:480.337 - 0.328ms returns FALSE
T5F3C 000:480.377 JLINK_HasError()
T5F3C 000:481.965 JLINK_IsHalted()
T5F3C 000:482.345 - 0.379ms returns FALSE
T5F3C 000:482.388 JLINK_HasError()
T5F3C 000:485.867 JLINK_IsHalted()
T5F3C 000:486.262 - 0.394ms returns FALSE
T5F3C 000:486.307 JLINK_HasError()
T5F3C 000:487.819 JLINK_IsHalted()
T5F3C 000:488.155 - 0.335ms returns FALSE
T5F3C 000:488.193 JLINK_HasError()
T5F3C 000:489.780 JLINK_IsHalted()
T5F3C 000:490.199 - 0.419ms returns FALSE
T5F3C 000:490.247 JLINK_HasError()
T5F3C 000:491.727 JLINK_IsHalted()
T5F3C 000:493.931   CPU_ReadMem(2 bytes @ 0x20000000)
T5F3C 000:494.237 - 2.509ms returns TRUE
T5F3C 000:494.275 JLINK_ReadReg(R15 (PC))
T5F3C 000:494.289 - 0.014ms returns 0x20000000
T5F3C 000:494.300 JLINK_ClrBPEx(BPHandle = 0x00000005)
T5F3C 000:494.310 - 0.010ms returns 0x00
T5F3C 000:494.321 JLINK_ReadReg(R0)
T5F3C 000:494.331 - 0.010ms returns 0x00000000
T5F3C 000:494.839 JLINK_HasError()
T5F3C 000:494.858 JLINK_WriteReg(R0, 0x08004000)
T5F3C 000:494.870 - 0.011ms returns 0
T5F3C 000:494.880 JLINK_WriteReg(R1, 0x00000800)
T5F3C 000:494.890 - 0.010ms returns 0
T5F3C 000:494.900 JLINK_WriteReg(R2, 0x000000FF)
T5F3C 000:494.910 - 0.010ms returns 0
T5F3C 000:494.921 JLINK_WriteReg(R3, 0x00000000)
T5F3C 000:494.931 - 0.009ms returns 0
T5F3C 000:494.941 JLINK_WriteReg(R4, 0x00000000)
T5F3C 000:494.951 - 0.010ms returns 0
T5F3C 000:494.961 JLINK_WriteReg(R5, 0x00000000)
T5F3C 000:494.972 - 0.010ms returns 0
T5F3C 000:494.982 JLINK_WriteReg(R6, 0x00000000)
T5F3C 000:494.992 - 0.010ms returns 0
T5F3C 000:495.003 JLINK_WriteReg(R7, 0x00000000)
T5F3C 000:495.012 - 0.009ms returns 0
T5F3C 000:495.023 JLINK_WriteReg(R8, 0x00000000)
T5F3C 000:495.033 - 0.010ms returns 0
T5F3C 000:495.043 JLINK_WriteReg(R9, 0x20000134)
T5F3C 000:495.053 - 0.010ms returns 0
T5F3C 000:495.064 JLINK_WriteReg(R10, 0x00000000)
T5F3C 000:495.074 - 0.010ms returns 0
T5F3C 000:495.084 JLINK_WriteReg(R11, 0x00000000)
T5F3C 000:495.094 - 0.009ms returns 0
T5F3C 000:495.104 JLINK_WriteReg(R12, 0x00000000)
T5F3C 000:495.114 - 0.010ms returns 0
T5F3C 000:495.125 JLINK_WriteReg(R13 (SP), 0x20001000)
T5F3C 000:495.136 - 0.011ms returns 0
T5F3C 000:495.146 JLINK_WriteReg(R14, 0x20000001)
T5F3C 000:495.156 - 0.010ms returns 0
T5F3C 000:495.167 JLINK_WriteReg(R15 (PC), 0x20000020)
T5F3C 000:495.177 - 0.010ms returns 0
T5F3C 000:495.187 JLINK_WriteReg(XPSR, 0x01000000)
T5F3C 000:495.198 - 0.010ms returns 0
T5F3C 000:495.208 JLINK_WriteReg(MSP, 0x20001000)
T5F3C 000:495.218 - 0.010ms returns 0
T5F3C 000:495.228 JLINK_WriteReg(PSP, 0x20001000)
T5F3C 000:495.238 - 0.010ms returns 0
T5F3C 000:495.254 JLINK_WriteReg(CFBP, 0x00000000)
T5F3C 000:495.264 - 0.010ms returns 0
T5F3C 000:495.275 JLINK_SetBPEx(Addr = 0x20000000, Type = 0xFFFFFFF2)
T5F3C 000:495.287 - 0.011ms returns 0x00000006
T5F3C 000:495.298 JLINK_Go()
T5F3C 000:495.314   CPU_ReadMem(4 bytes @ 0xE0001000)
T5F3C 000:497.619 - 2.320ms
T5F3C 000:497.672 JLINK_IsHalted()
T5F3C 000:499.705   CPU_ReadMem(2 bytes @ 0x20000000)
T5F3C 000:500.064 - 2.391ms returns TRUE
T5F3C 000:500.104 JLINK_ReadReg(R15 (PC))
T5F3C 000:500.119 - 0.015ms returns 0x20000000
T5F3C 000:500.131 JLINK_ClrBPEx(BPHandle = 0x00000006)
T5F3C 000:500.142 - 0.011ms returns 0x00
T5F3C 000:500.154 JLINK_ReadReg(R0)
T5F3C 000:500.165 - 0.010ms returns 0x00000001
T5F3C 000:500.176 JLINK_HasError()
T5F3C 000:500.188 JLINK_WriteReg(R0, 0x08004000)
T5F3C 000:500.199 - 0.010ms returns 0
T5F3C 000:500.210 JLINK_WriteReg(R1, 0x00000800)
T5F3C 000:500.221 - 0.010ms returns 0
T5F3C 000:500.231 JLINK_WriteReg(R2, 0x000000FF)
T5F3C 000:500.242 - 0.010ms returns 0
T5F3C 000:500.253 JLINK_WriteReg(R3, 0x00000000)
T5F3C 000:500.264 - 0.010ms returns 0
T5F3C 000:500.274 JLINK_WriteReg(R4, 0x00000000)
T5F3C 000:500.285 - 0.010ms returns 0
T5F3C 000:500.296 JLINK_WriteReg(R5, 0x00000000)
T5F3C 000:500.306 - 0.010ms returns 0
T5F3C 000:500.317 JLINK_WriteReg(R6, 0x00000000)
T5F3C 000:500.327 - 0.010ms returns 0
T5F3C 000:500.339 JLINK_WriteReg(R7, 0x00000000)
T5F3C 000:500.348 - 0.009ms returns 0
T5F3C 000:500.360 JLINK_WriteReg(R8, 0x00000000)
T5F3C 000:500.370 - 0.010ms returns 0
T5F3C 000:500.381 JLINK_WriteReg(R9, 0x20000134)
T5F3C 000:500.392 - 0.010ms returns 0
T5F3C 000:500.403 JLINK_WriteReg(R10, 0x00000000)
T5F3C 000:500.414 - 0.010ms returns 0
T5F3C 000:500.425 JLINK_WriteReg(R11, 0x00000000)
T5F3C 000:500.435 - 0.010ms returns 0
T5F3C 000:500.446 JLINK_WriteReg(R12, 0x00000000)
T5F3C 000:500.457 - 0.010ms returns 0
T5F3C 000:500.468 JLINK_WriteReg(R13 (SP), 0x20001000)
T5F3C 000:500.478 - 0.010ms returns 0
T5F3C 000:500.489 JLINK_WriteReg(R14, 0x20000001)
T5F3C 000:500.501 - 0.011ms returns 0
T5F3C 000:500.515 JLINK_WriteReg(R15 (PC), 0x200000A8)
T5F3C 000:500.528 - 0.013ms returns 0
T5F3C 000:500.540 JLINK_WriteReg(XPSR, 0x01000000)
T5F3C 000:500.549 - 0.009ms returns 0
T5F3C 000:500.561 JLINK_WriteReg(MSP, 0x20001000)
T5F3C 000:500.571 - 0.010ms returns 0
T5F3C 000:500.582 JLINK_WriteReg(PSP, 0x20001000)
T5F3C 000:500.592 - 0.010ms returns 0
T5F3C 000:500.603 JLINK_WriteReg(CFBP, 0x00000000)
T5F3C 000:500.614 - 0.010ms returns 0
T5F3C 000:500.625 JLINK_SetBPEx(Addr = 0x20000000, Type = 0xFFFFFFF2)
T5F3C 000:500.636 - 0.011ms returns 0x00000007
T5F3C 000:500.648 JLINK_Go()
T5F3C 000:500.663   CPU_ReadMem(4 bytes @ 0xE0001000)
T5F3C 000:502.913 - 2.264ms
T5F3C 000:502.983 JLINK_IsHalted()
T5F3C 000:503.273 - 0.289ms returns FALSE
T5F3C 000:503.313 JLINK_HasError()
T5F3C 000:506.365 JLINK_IsHalted()
T5F3C 000:506.787 - 0.421ms returns FALSE
T5F3C 000:506.825 JLINK_HasError()
T5F3C 000:508.313 JLINK_IsHalted()
T5F3C 000:508.613 - 0.300ms returns FALSE
T5F3C 000:508.649 JLINK_HasError()
T5F3C 000:510.264 JLINK_IsHalted()
T5F3C 000:510.612 - 0.348ms returns FALSE
T5F3C 000:510.648 JLINK_HasError()
T5F3C 000:512.214 JLINK_IsHalted()
T5F3C 000:512.530 - 0.316ms returns FALSE
T5F3C 000:512.569 JLINK_HasError()
T5F3C 000:514.165 JLINK_IsHalted()
T5F3C 000:514.464 - 0.298ms returns FALSE
T5F3C 000:514.499 JLINK_HasError()
T5F3C 000:516.121 JLINK_IsHalted()
T5F3C 000:516.436 - 0.314ms returns FALSE
T5F3C 000:516.483 JLINK_HasError()
T5F3C 000:518.070 JLINK_IsHalted()
T5F3C 000:518.402 - 0.331ms returns FALSE
T5F3C 000:518.438 JLINK_HasError()
T5F3C 000:520.021 JLINK_IsHalted()
T5F3C 000:520.321 - 0.299ms returns FALSE
T5F3C 000:520.357 JLINK_HasError()
T5F3C 000:521.975 JLINK_IsHalted()
T5F3C 000:522.275 - 0.300ms returns FALSE
T5F3C 000:522.310 JLINK_HasError()
T5F3C 000:523.926 JLINK_IsHalted()
T5F3C 000:524.224 - 0.298ms returns FALSE
T5F3C 000:524.259 JLINK_HasError()
T5F3C 000:525.903 JLINK_IsHalted()
T5F3C 000:526.239 - 0.335ms returns FALSE
T5F3C 000:526.286 JLINK_HasError()
T5F3C 000:527.865 JLINK_IsHalted()
T5F3C 000:528.213 - 0.347ms returns FALSE
T5F3C 000:528.260 JLINK_HasError()
T5F3C 000:529.812 JLINK_IsHalted()
T5F3C 000:530.194 - 0.381ms returns FALSE
T5F3C 000:530.244 JLINK_HasError()
T5F3C 000:535.639 JLINK_IsHalted()
T5F3C 000:537.684   CPU_ReadMem(2 bytes @ 0x20000000)
T5F3C 000:537.981 - 2.342ms returns TRUE
T5F3C 000:538.019 JLINK_ReadReg(R15 (PC))
T5F3C 000:538.033 - 0.014ms returns 0x20000000
T5F3C 000:538.044 JLINK_ClrBPEx(BPHandle = 0x00000007)
T5F3C 000:538.055 - 0.010ms returns 0x00
T5F3C 000:538.066 JLINK_ReadReg(R0)
T5F3C 000:538.077 - 0.010ms returns 0x00000000
T5F3C 000:538.475 JLINK_HasError()
T5F3C 000:538.493 JLINK_WriteReg(R0, 0x08004800)
T5F3C 000:538.505 - 0.012ms returns 0
T5F3C 000:538.515 JLINK_WriteReg(R1, 0x00000800)
T5F3C 000:538.526 - 0.010ms returns 0
T5F3C 000:538.537 JLINK_WriteReg(R2, 0x000000FF)
T5F3C 000:538.547 - 0.010ms returns 0
T5F3C 000:538.558 JLINK_WriteReg(R3, 0x00000000)
T5F3C 000:538.569 - 0.011ms returns 0
T5F3C 000:538.579 JLINK_WriteReg(R4, 0x00000000)
T5F3C 000:538.590 - 0.010ms returns 0
T5F3C 000:538.601 JLINK_WriteReg(R5, 0x00000000)
T5F3C 000:538.611 - 0.010ms returns 0
T5F3C 000:538.622 JLINK_WriteReg(R6, 0x00000000)
T5F3C 000:538.631 - 0.009ms returns 0
T5F3C 000:538.642 JLINK_WriteReg(R7, 0x00000000)
T5F3C 000:538.652 - 0.010ms returns 0
T5F3C 000:538.663 JLINK_WriteReg(R8, 0x00000000)
T5F3C 000:538.673 - 0.010ms returns 0
T5F3C 000:538.684 JLINK_WriteReg(R9, 0x20000134)
T5F3C 000:538.694 - 0.010ms returns 0
T5F3C 000:538.705 JLINK_WriteReg(R10, 0x00000000)
T5F3C 000:538.715 - 0.009ms returns 0
T5F3C 000:538.726 JLINK_WriteReg(R11, 0x00000000)
T5F3C 000:538.736 - 0.010ms returns 0
T5F3C 000:538.746 JLINK_WriteReg(R12, 0x00000000)
T5F3C 000:538.757 - 0.010ms returns 0
T5F3C 000:538.767 JLINK_WriteReg(R13 (SP), 0x20001000)
T5F3C 000:538.778 - 0.011ms returns 0
T5F3C 000:538.789 JLINK_WriteReg(R14, 0x20000001)
T5F3C 000:538.798 - 0.009ms returns 0
T5F3C 000:538.809 JLINK_WriteReg(R15 (PC), 0x20000020)
T5F3C 000:538.819 - 0.010ms returns 0
T5F3C 000:538.830 JLINK_WriteReg(XPSR, 0x01000000)
T5F3C 000:538.840 - 0.010ms returns 0
T5F3C 000:538.851 JLINK_WriteReg(MSP, 0x20001000)
T5F3C 000:538.861 - 0.010ms returns 0
T5F3C 000:538.871 JLINK_WriteReg(PSP, 0x20001000)
T5F3C 000:538.881 - 0.009ms returns 0
T5F3C 000:538.892 JLINK_WriteReg(CFBP, 0x00000000)
T5F3C 000:538.902 - 0.010ms returns 0
T5F3C 000:538.913 JLINK_SetBPEx(Addr = 0x20000000, Type = 0xFFFFFFF2)
T5F3C 000:538.925 - 0.011ms returns 0x00000008
T5F3C 000:538.936 JLINK_Go()
T5F3C 000:538.952   CPU_ReadMem(4 bytes @ 0xE0001000)
T5F3C 000:541.191 - 2.255ms
T5F3C 000:541.232 JLINK_IsHalted()
T5F3C 000:543.162   CPU_ReadMem(2 bytes @ 0x20000000)
T5F3C 000:543.461 - 2.228ms returns TRUE
T5F3C 000:543.513 JLINK_ReadReg(R15 (PC))
T5F3C 000:543.529 - 0.015ms returns 0x20000000
T5F3C 000:543.540 JLINK_ClrBPEx(BPHandle = 0x00000008)
T5F3C 000:543.551 - 0.010ms returns 0x00
T5F3C 000:543.561 JLINK_ReadReg(R0)
T5F3C 000:543.571 - 0.010ms returns 0x00000001
T5F3C 000:543.583 JLINK_HasError()
T5F3C 000:543.594 JLINK_WriteReg(R0, 0x08004800)
T5F3C 000:543.605 - 0.011ms returns 0
T5F3C 000:543.615 JLINK_WriteReg(R1, 0x00000800)
T5F3C 000:543.625 - 0.009ms returns 0
T5F3C 000:543.673 JLINK_WriteReg(R2, 0x000000FF)
T5F3C 000:543.684 - 0.011ms returns 0
T5F3C 000:543.695 JLINK_WriteReg(R3, 0x00000000)
T5F3C 000:543.705 - 0.010ms returns 0
T5F3C 000:543.715 JLINK_WriteReg(R4, 0x00000000)
T5F3C 000:543.726 - 0.010ms returns 0
T5F3C 000:543.739 JLINK_WriteReg(R5, 0x00000000)
T5F3C 000:543.753 - 0.014ms returns 0
T5F3C 000:543.763 JLINK_WriteReg(R6, 0x00000000)
T5F3C 000:543.773 - 0.009ms returns 0
T5F3C 000:543.784 JLINK_WriteReg(R7, 0x00000000)
T5F3C 000:543.794 - 0.010ms returns 0
T5F3C 000:543.805 JLINK_WriteReg(R8, 0x00000000)
T5F3C 000:543.815 - 0.010ms returns 0
T5F3C 000:543.825 JLINK_WriteReg(R9, 0x20000134)
T5F3C 000:543.838 - 0.012ms returns 0
T5F3C 000:543.850 JLINK_WriteReg(R10, 0x00000000)
T5F3C 000:543.860 - 0.010ms returns 0
T5F3C 000:543.871 JLINK_WriteReg(R11, 0x00000000)
T5F3C 000:543.882 - 0.010ms returns 0
T5F3C 000:543.892 JLINK_WriteReg(R12, 0x00000000)
T5F3C 000:543.902 - 0.010ms returns 0
T5F3C 000:543.913 JLINK_WriteReg(R13 (SP), 0x20001000)
T5F3C 000:543.923 - 0.010ms returns 0
T5F3C 000:543.934 JLINK_WriteReg(R14, 0x20000001)
T5F3C 000:543.944 - 0.010ms returns 0
T5F3C 000:543.954 JLINK_WriteReg(R15 (PC), 0x200000A8)
T5F3C 000:543.965 - 0.010ms returns 0
T5F3C 000:543.975 JLINK_WriteReg(XPSR, 0x01000000)
T5F3C 000:543.986 - 0.010ms returns 0
T5F3C 000:543.997 JLINK_WriteReg(MSP, 0x20001000)
T5F3C 000:544.007 - 0.010ms returns 0
T5F3C 000:544.018 JLINK_WriteReg(PSP, 0x20001000)
T5F3C 000:544.028 - 0.010ms returns 0
T5F3C 000:544.038 JLINK_WriteReg(CFBP, 0x00000000)
T5F3C 000:544.048 - 0.010ms returns 0
T5F3C 000:544.059 JLINK_SetBPEx(Addr = 0x20000000, Type = 0xFFFFFFF2)
T5F3C 000:544.070 - 0.011ms returns 0x00000009
T5F3C 000:544.081 JLINK_Go()
T5F3C 000:544.096   CPU_ReadMem(4 bytes @ 0xE0001000)
T5F3C 000:546.318 - 2.236ms
T5F3C 000:546.361 JLINK_IsHalted()
T5F3C 000:546.652 - 0.290ms returns FALSE
T5F3C 000:546.687 JLINK_HasError()
T5F3C 000:548.330 JLINK_IsHalted()
T5F3C 000:548.614 - 0.284ms returns FALSE
T5F3C 000:548.650 JLINK_HasError()
T5F3C 000:550.282 JLINK_IsHalted()
T5F3C 000:550.614 - 0.331ms returns FALSE
T5F3C 000:550.650 JLINK_HasError()
T5F3C 000:552.231 JLINK_IsHalted()
T5F3C 000:552.630 - 0.398ms returns FALSE
T5F3C 000:552.664 JLINK_HasError()
T5F3C 000:554.183 JLINK_IsHalted()
T5F3C 000:554.483 - 0.300ms returns FALSE
T5F3C 000:554.518 JLINK_HasError()
T5F3C 000:556.135 JLINK_IsHalted()
T5F3C 000:556.445 - 0.309ms returns FALSE
T5F3C 000:556.483 JLINK_HasError()
T5F3C 000:558.087 JLINK_IsHalted()
T5F3C 000:558.396 - 0.308ms returns FALSE
T5F3C 000:558.445 JLINK_HasError()
T5F3C 000:560.041 JLINK_IsHalted()
T5F3C 000:560.360 - 0.318ms returns FALSE
T5F3C 000:560.395 JLINK_HasError()
T5F3C 000:561.994 JLINK_IsHalted()
T5F3C 000:562.314 - 0.319ms returns FALSE
T5F3C 000:562.354 JLINK_HasError()
T5F3C 000:563.944 JLINK_IsHalted()
T5F3C 000:564.256 - 0.312ms returns FALSE
T5F3C 000:564.292 JLINK_HasError()
T5F3C 000:565.895 JLINK_IsHalted()
T5F3C 000:566.187 - 0.291ms returns FALSE
T5F3C 000:566.223 JLINK_HasError()
T5F3C 000:567.849 JLINK_IsHalted()
T5F3C 000:568.195 - 0.346ms returns FALSE
T5F3C 000:568.235 JLINK_HasError()
T5F3C 000:569.808 JLINK_IsHalted()
T5F3C 000:570.134 - 0.325ms returns FALSE
T5F3C 000:570.182 JLINK_HasError()
T5F3C 000:571.754 JLINK_IsHalted()
T5F3C 000:572.092 - 0.337ms returns FALSE
T5F3C 000:572.127 JLINK_HasError()
T5F3C 000:573.703 JLINK_IsHalted()
T5F3C 000:574.004 - 0.300ms returns FALSE
T5F3C 000:574.038 JLINK_HasError()
T5F3C 000:575.659 JLINK_IsHalted()
T5F3C 000:577.704   CPU_ReadMem(2 bytes @ 0x20000000)
T5F3C 000:578.007 - 2.347ms returns TRUE
T5F3C 000:578.051 JLINK_ReadReg(R15 (PC))
T5F3C 000:578.065 - 0.014ms returns 0x20000000
T5F3C 000:578.077 JLINK_ClrBPEx(BPHandle = 0x00000009)
T5F3C 000:578.087 - 0.010ms returns 0x00
T5F3C 000:578.097 JLINK_ReadReg(R0)
T5F3C 000:578.108 - 0.010ms returns 0x00000000
T5F3C 000:578.553 JLINK_HasError()
T5F3C 000:578.571 JLINK_WriteReg(R0, 0x08005000)
T5F3C 000:578.584 - 0.013ms returns 0
T5F3C 000:578.602 JLINK_WriteReg(R1, 0x00000800)
T5F3C 000:578.613 - 0.011ms returns 0
T5F3C 000:578.625 JLINK_WriteReg(R2, 0x000000FF)
T5F3C 000:578.635 - 0.010ms returns 0
T5F3C 000:578.646 JLINK_WriteReg(R3, 0x00000000)
T5F3C 000:578.656 - 0.010ms returns 0
T5F3C 000:578.667 JLINK_WriteReg(R4, 0x00000000)
T5F3C 000:578.677 - 0.010ms returns 0
T5F3C 000:578.689 JLINK_WriteReg(R5, 0x00000000)
T5F3C 000:578.699 - 0.010ms returns 0
T5F3C 000:578.711 JLINK_WriteReg(R6, 0x00000000)
T5F3C 000:578.721 - 0.010ms returns 0
T5F3C 000:578.732 JLINK_WriteReg(R7, 0x00000000)
T5F3C 000:578.742 - 0.010ms returns 0
T5F3C 000:578.754 JLINK_WriteReg(R8, 0x00000000)
T5F3C 000:578.769 - 0.015ms returns 0
T5F3C 000:578.781 JLINK_WriteReg(R9, 0x20000134)
T5F3C 000:578.791 - 0.010ms returns 0
T5F3C 000:578.802 JLINK_WriteReg(R10, 0x00000000)
T5F3C 000:578.812 - 0.010ms returns 0
T5F3C 000:578.824 JLINK_WriteReg(R11, 0x00000000)
T5F3C 000:578.834 - 0.010ms returns 0
T5F3C 000:578.845 JLINK_WriteReg(R12, 0x00000000)
T5F3C 000:578.855 - 0.010ms returns 0
T5F3C 000:578.866 JLINK_WriteReg(R13 (SP), 0x20001000)
T5F3C 000:578.877 - 0.010ms returns 0
T5F3C 000:578.889 JLINK_WriteReg(R14, 0x20000001)
T5F3C 000:578.899 - 0.010ms returns 0
T5F3C 000:578.911 JLINK_WriteReg(R15 (PC), 0x20000020)
T5F3C 000:578.921 - 0.010ms returns 0
T5F3C 000:578.932 JLINK_WriteReg(XPSR, 0x01000000)
T5F3C 000:578.943 - 0.010ms returns 0
T5F3C 000:578.954 JLINK_WriteReg(MSP, 0x20001000)
T5F3C 000:578.965 - 0.010ms returns 0
T5F3C 000:578.976 JLINK_WriteReg(PSP, 0x20001000)
T5F3C 000:578.986 - 0.010ms returns 0
T5F3C 000:578.997 JLINK_WriteReg(CFBP, 0x00000000)
T5F3C 000:579.008 - 0.010ms returns 0
T5F3C 000:579.019 JLINK_SetBPEx(Addr = 0x20000000, Type = 0xFFFFFFF2)
T5F3C 000:579.031 - 0.011ms returns 0x0000000A
T5F3C 000:579.042 JLINK_Go()
T5F3C 000:579.058   CPU_ReadMem(4 bytes @ 0xE0001000)
T5F3C 000:581.272 - 2.229ms
T5F3C 000:581.316 JLINK_IsHalted()
T5F3C 000:583.250   CPU_ReadMem(2 bytes @ 0x20000000)
T5F3C 000:583.632 - 2.315ms returns TRUE
T5F3C 000:583.673 JLINK_ReadReg(R15 (PC))
T5F3C 000:583.687 - 0.014ms returns 0x20000000
T5F3C 000:583.699 JLINK_ClrBPEx(BPHandle = 0x0000000A)
T5F3C 000:583.710 - 0.011ms returns 0x00
T5F3C 000:583.721 JLINK_ReadReg(R0)
T5F3C 000:583.732 - 0.010ms returns 0x00000001
T5F3C 000:583.743 JLINK_HasError()
T5F3C 000:583.755 JLINK_WriteReg(R0, 0x08005000)
T5F3C 000:583.766 - 0.011ms returns 0
T5F3C 000:583.778 JLINK_WriteReg(R1, 0x00000800)
T5F3C 000:583.788 - 0.010ms returns 0
T5F3C 000:583.799 JLINK_WriteReg(R2, 0x000000FF)
T5F3C 000:583.810 - 0.010ms returns 0
T5F3C 000:583.826 JLINK_WriteReg(R3, 0x00000000)
T5F3C 000:583.837 - 0.010ms returns 0
T5F3C 000:583.848 JLINK_WriteReg(R4, 0x00000000)
T5F3C 000:583.858 - 0.010ms returns 0
T5F3C 000:583.869 JLINK_WriteReg(R5, 0x00000000)
T5F3C 000:583.880 - 0.010ms returns 0
T5F3C 000:583.891 JLINK_WriteReg(R6, 0x00000000)
T5F3C 000:583.901 - 0.009ms returns 0
T5F3C 000:583.913 JLINK_WriteReg(R7, 0x00000000)
T5F3C 000:583.923 - 0.010ms returns 0
T5F3C 000:583.934 JLINK_WriteReg(R8, 0x00000000)
T5F3C 000:583.945 - 0.010ms returns 0
T5F3C 000:583.956 JLINK_WriteReg(R9, 0x20000134)
T5F3C 000:583.967 - 0.010ms returns 0
T5F3C 000:583.978 JLINK_WriteReg(R10, 0x00000000)
T5F3C 000:583.989 - 0.010ms returns 0
T5F3C 000:584.000 JLINK_WriteReg(R11, 0x00000000)
T5F3C 000:584.010 - 0.010ms returns 0
T5F3C 000:584.021 JLINK_WriteReg(R12, 0x00000000)
T5F3C 000:584.032 - 0.010ms returns 0
T5F3C 000:584.043 JLINK_WriteReg(R13 (SP), 0x20001000)
T5F3C 000:584.054 - 0.010ms returns 0
T5F3C 000:584.065 JLINK_WriteReg(R14, 0x20000001)
T5F3C 000:584.075 - 0.009ms returns 0
T5F3C 000:584.087 JLINK_WriteReg(R15 (PC), 0x200000A8)
T5F3C 000:584.097 - 0.010ms returns 0
T5F3C 000:584.108 JLINK_WriteReg(XPSR, 0x01000000)
T5F3C 000:584.119 - 0.010ms returns 0
T5F3C 000:584.130 JLINK_WriteReg(MSP, 0x20001000)
T5F3C 000:584.141 - 0.010ms returns 0
T5F3C 000:584.152 JLINK_WriteReg(PSP, 0x20001000)
T5F3C 000:584.162 - 0.010ms returns 0
T5F3C 000:584.174 JLINK_WriteReg(CFBP, 0x00000000)
T5F3C 000:584.184 - 0.010ms returns 0
T5F3C 000:584.196 JLINK_SetBPEx(Addr = 0x20000000, Type = 0xFFFFFFF2)
T5F3C 000:584.207 - 0.011ms returns 0x0000000B
T5F3C 000:584.218 JLINK_Go()
T5F3C 000:584.233   CPU_ReadMem(4 bytes @ 0xE0001000)
T5F3C 000:586.354 - 2.135ms
T5F3C 000:586.399 JLINK_IsHalted()
T5F3C 000:586.706 - 0.307ms returns FALSE
T5F3C 000:586.742 JLINK_HasError()
T5F3C 000:590.296 JLINK_IsHalted()
T5F3C 000:590.608 - 0.310ms returns FALSE
T5F3C 000:590.660 JLINK_HasError()
T5F3C 000:594.204 JLINK_IsHalted()
T5F3C 000:594.627 - 0.423ms returns FALSE
T5F3C 000:594.666 JLINK_HasError()
T5F3C 000:596.154 JLINK_IsHalted()
T5F3C 000:596.471 - 0.316ms returns FALSE
T5F3C 000:596.508 JLINK_HasError()
T5F3C 000:598.104 JLINK_IsHalted()
T5F3C 000:598.460 - 0.355ms returns FALSE
T5F3C 000:598.501 JLINK_HasError()
T5F3C 000:600.056 JLINK_IsHalted()
T5F3C 000:600.353 - 0.297ms returns FALSE
T5F3C 000:600.389 JLINK_HasError()
T5F3C 000:602.013 JLINK_IsHalted()
T5F3C 000:602.334 - 0.321ms returns FALSE
T5F3C 000:602.371 JLINK_HasError()
T5F3C 000:603.960 JLINK_IsHalted()
T5F3C 000:604.268 - 0.307ms returns FALSE
T5F3C 000:604.302 JLINK_HasError()
T5F3C 000:605.911 JLINK_IsHalted()
T5F3C 000:606.219 - 0.307ms returns FALSE
T5F3C 000:606.264 JLINK_HasError()
T5F3C 000:608.842 JLINK_IsHalted()
T5F3C 000:609.150 - 0.308ms returns FALSE
T5F3C 000:609.185 JLINK_HasError()
T5F3C 000:610.792 JLINK_IsHalted()
T5F3C 000:611.091 - 0.299ms returns FALSE
T5F3C 000:611.125 JLINK_HasError()
T5F3C 000:612.748 JLINK_IsHalted()
T5F3C 000:613.064 - 0.316ms returns FALSE
T5F3C 000:613.111 JLINK_HasError()
T5F3C 000:614.696 JLINK_IsHalted()
T5F3C 000:615.004 - 0.307ms returns FALSE
T5F3C 000:615.039 JLINK_HasError()
T5F3C 000:616.648 JLINK_IsHalted()
T5F3C 000:618.671   CPU_ReadMem(2 bytes @ 0x20000000)
T5F3C 000:618.960 - 2.312ms returns TRUE
T5F3C 000:618.995 JLINK_ReadReg(R15 (PC))
T5F3C 000:619.010 - 0.014ms returns 0x20000000
T5F3C 000:619.020 JLINK_ClrBPEx(BPHandle = 0x0000000B)
T5F3C 000:619.031 - 0.010ms returns 0x00
T5F3C 000:619.041 JLINK_ReadReg(R0)
T5F3C 000:619.051 - 0.009ms returns 0x00000000
T5F3C 000:619.494 JLINK_HasError()
T5F3C 000:619.512 JLINK_WriteReg(R0, 0x08005800)
T5F3C 000:619.523 - 0.011ms returns 0
T5F3C 000:619.534 JLINK_WriteReg(R1, 0x00000800)
T5F3C 000:619.545 - 0.010ms returns 0
T5F3C 000:619.555 JLINK_WriteReg(R2, 0x000000FF)
T5F3C 000:619.565 - 0.010ms returns 0
T5F3C 000:619.577 JLINK_WriteReg(R3, 0x00000000)
T5F3C 000:619.587 - 0.010ms returns 0
T5F3C 000:619.598 JLINK_WriteReg(R4, 0x00000000)
T5F3C 000:619.608 - 0.010ms returns 0
T5F3C 000:619.619 JLINK_WriteReg(R5, 0x00000000)
T5F3C 000:619.629 - 0.010ms returns 0
T5F3C 000:619.639 JLINK_WriteReg(R6, 0x00000000)
T5F3C 000:619.650 - 0.010ms returns 0
T5F3C 000:619.660 JLINK_WriteReg(R7, 0x00000000)
T5F3C 000:619.670 - 0.010ms returns 0
T5F3C 000:619.681 JLINK_WriteReg(R8, 0x00000000)
T5F3C 000:619.691 - 0.010ms returns 0
T5F3C 000:619.702 JLINK_WriteReg(R9, 0x20000134)
T5F3C 000:619.711 - 0.009ms returns 0
T5F3C 000:619.722 JLINK_WriteReg(R10, 0x00000000)
T5F3C 000:619.733 - 0.010ms returns 0
T5F3C 000:619.743 JLINK_WriteReg(R11, 0x00000000)
T5F3C 000:619.753 - 0.010ms returns 0
T5F3C 000:619.763 JLINK_WriteReg(R12, 0x00000000)
T5F3C 000:619.774 - 0.010ms returns 0
T5F3C 000:619.785 JLINK_WriteReg(R13 (SP), 0x20001000)
T5F3C 000:619.795 - 0.010ms returns 0
T5F3C 000:619.806 JLINK_WriteReg(R14, 0x20000001)
T5F3C 000:619.816 - 0.010ms returns 0
T5F3C 000:619.827 JLINK_WriteReg(R15 (PC), 0x20000020)
T5F3C 000:619.837 - 0.010ms returns 0
T5F3C 000:619.848 JLINK_WriteReg(XPSR, 0x01000000)
T5F3C 000:619.858 - 0.010ms returns 0
T5F3C 000:619.869 JLINK_WriteReg(MSP, 0x20001000)
T5F3C 000:619.879 - 0.010ms returns 0
T5F3C 000:619.889 JLINK_WriteReg(PSP, 0x20001000)
T5F3C 000:619.900 - 0.010ms returns 0
T5F3C 000:619.910 JLINK_WriteReg(CFBP, 0x00000000)
T5F3C 000:619.920 - 0.010ms returns 0
T5F3C 000:619.932 JLINK_SetBPEx(Addr = 0x20000000, Type = 0xFFFFFFF2)
T5F3C 000:619.942 - 0.011ms returns 0x0000000C
T5F3C 000:619.954 JLINK_Go()
T5F3C 000:619.968   CPU_ReadMem(4 bytes @ 0xE0001000)
T5F3C 000:622.205 - 2.251ms
T5F3C 000:622.241 JLINK_IsHalted()
T5F3C 000:624.382   CPU_ReadMem(2 bytes @ 0x20000000)
T5F3C 000:624.655 - 2.413ms returns TRUE
T5F3C 000:624.694 JLINK_ReadReg(R15 (PC))
T5F3C 000:624.707 - 0.013ms returns 0x20000000
T5F3C 000:624.718 JLINK_ClrBPEx(BPHandle = 0x0000000C)
T5F3C 000:624.729 - 0.010ms returns 0x00
T5F3C 000:624.740 JLINK_ReadReg(R0)
T5F3C 000:624.750 - 0.010ms returns 0x00000001
T5F3C 000:624.761 JLINK_HasError()
T5F3C 000:624.776 JLINK_WriteReg(R0, 0x08005800)
T5F3C 000:624.787 - 0.011ms returns 0
T5F3C 000:624.797 JLINK_WriteReg(R1, 0x00000800)
T5F3C 000:624.807 - 0.010ms returns 0
T5F3C 000:624.818 JLINK_WriteReg(R2, 0x000000FF)
T5F3C 000:624.828 - 0.009ms returns 0
T5F3C 000:624.838 JLINK_WriteReg(R3, 0x00000000)
T5F3C 000:624.848 - 0.010ms returns 0
T5F3C 000:624.859 JLINK_WriteReg(R4, 0x00000000)
T5F3C 000:624.869 - 0.010ms returns 0
T5F3C 000:624.879 JLINK_WriteReg(R5, 0x00000000)
T5F3C 000:624.889 - 0.010ms returns 0
T5F3C 000:624.900 JLINK_WriteReg(R6, 0x00000000)
T5F3C 000:624.910 - 0.010ms returns 0
T5F3C 000:624.921 JLINK_WriteReg(R7, 0x00000000)
T5F3C 000:624.931 - 0.009ms returns 0
T5F3C 000:624.941 JLINK_WriteReg(R8, 0x00000000)
T5F3C 000:624.951 - 0.010ms returns 0
T5F3C 000:624.962 JLINK_WriteReg(R9, 0x20000134)
T5F3C 000:624.972 - 0.010ms returns 0
T5F3C 000:624.982 JLINK_WriteReg(R10, 0x00000000)
T5F3C 000:624.992 - 0.010ms returns 0
T5F3C 000:625.003 JLINK_WriteReg(R11, 0x00000000)
T5F3C 000:625.012 - 0.009ms returns 0
T5F3C 000:625.023 JLINK_WriteReg(R12, 0x00000000)
T5F3C 000:625.033 - 0.010ms returns 0
T5F3C 000:625.044 JLINK_WriteReg(R13 (SP), 0x20001000)
T5F3C 000:625.054 - 0.010ms returns 0
T5F3C 000:625.065 JLINK_WriteReg(R14, 0x20000001)
T5F3C 000:625.075 - 0.010ms returns 0
T5F3C 000:625.086 JLINK_WriteReg(R15 (PC), 0x200000A8)
T5F3C 000:625.096 - 0.010ms returns 0
T5F3C 000:625.106 JLINK_WriteReg(XPSR, 0x01000000)
T5F3C 000:625.117 - 0.010ms returns 0
T5F3C 000:625.127 JLINK_WriteReg(MSP, 0x20001000)
T5F3C 000:625.137 - 0.010ms returns 0
T5F3C 000:625.148 JLINK_WriteReg(PSP, 0x20001000)
T5F3C 000:625.158 - 0.010ms returns 0
T5F3C 000:625.169 JLINK_WriteReg(CFBP, 0x00000000)
T5F3C 000:625.178 - 0.009ms returns 0
T5F3C 000:625.189 JLINK_SetBPEx(Addr = 0x20000000, Type = 0xFFFFFFF2)
T5F3C 000:625.200 - 0.011ms returns 0x0000000D
T5F3C 000:625.210 JLINK_Go()
